Circuit: * A:\my_projects_Tamisi_Radu\MEMS_Accelerometer_SCCS\OTA_folded_cascode\folded_cascode.asc

Ignoring BSIM parameter XL
Ignoring BSIM parameter XW
Ignoring BSIM parameter ACM
Ignoring BSIM parameter LDIF
Ignoring BSIM parameter HDIF
Ignoring BSIM parameter TLEV
Ignoring BSIM parameter TLEVC
Ignoring BSIM parameter CALCACM
Ignoring BSIM parameter SFVTFLAGl
Ignoring BSIM parameter XL
Ignoring BSIM parameter XW
Ignoring BSIM parameter ACM
Ignoring BSIM parameter LDIF
Ignoring BSIM parameter HDIF
Ignoring BSIM parameter TLEV
Ignoring BSIM parameter TLEVC
Ignoring BSIM parameter CALCACM
Ignoring BSIM parameter SFVTFLAGl
Ignoring BSIM parameter XL
Ignoring BSIM parameter XW
Ignoring BSIM parameter ACM
Ignoring BSIM parameter LDIF
Ignoring BSIM parameter HDIF
Ignoring BSIM parameter TLEV
Ignoring BSIM parameter TLEVC
Ignoring BSIM parameter CALCACM
Ignoring BSIM parameter SFVTFLAGl
Ignoring BSIM parameter XL
Ignoring BSIM parameter XW
Ignoring BSIM parameter ACM
Ignoring BSIM parameter LDIF
Ignoring BSIM parameter HDIF
Ignoring BSIM parameter TLEV
Ignoring BSIM parameter TLEVC
Ignoring BSIM parameter CALCACM
Ignoring BSIM parameter SFVTFLAGl
Ignoring BSIM parameter XL
Ignoring BSIM parameter XW
Ignoring BSIM parameter ACM
Ignoring BSIM parameter LDIF
Ignoring BSIM parameter HDIF
Ignoring BSIM parameter TLEV
Ignoring BSIM parameter TLEVC
Ignoring BSIM parameter CALCACM
Ignoring BSIM parameter SFVTFLAGl
Warning: Pd = 0 is less than W.
Warning: Ps = 0 is less than W.
Warning: Pd = 0 is less than W.
Warning: Ps = 0 is less than W.
Warning: Pd = 0 is less than W.
Warning: Ps = 0 is less than W.
Warning: Pd = 0 is less than W.
Warning: Ps = 0 is less than W.
Warning: Pd = 0 is less than W.
Warning: Ps = 0 is less than W.
Direct Newton iteration failed to find .op point.  (Use ".option noopiter" to skip.)
Starting Gmin stepping
Gmin = 10
Gmin = 1.07374
Gmin = 0.115292
Gmin = 0.0123794
Gmin = 0.00132923
Gmin = 0.000142725
vernier = 0.5
Gmin = 2.39452e-005
vernier = 0.25
vernier = 0.333333
Gmin = 1.39088e-005
vernier = 0.444444
vernier = 0.592592
Gmin = 5.0636e-006
vernier = 0.790123
Gmin = 1.03047e-006
vernier = 1
Gmin = 1.15494e-007
Gmin = 1.24011e-008
Gmin = 1.33156e-009
Gmin = 1.42975e-010
Gmin = 1.53518e-011
Gmin = 1.64839e-012
Gmin = 1.76994e-013
Gmin = 0
Gmin stepping succeeded in finding the operating point.

Semiconductor Device Operating Points:
                        --- BSIM3 MOSFETS ---
Name:        m5          m7          m4          m6          m11
Model:      pch.5       pch.5       pch.5       pch.5       nch.8
Id:       -1.50e-05   -3.83e-06   -1.50e-05   -3.85e-06    3.85e-06
Vgs:      -4.76e-01   -4.66e-01   -4.76e-01   -4.64e-01    4.33e-01
Vds:      -1.22e-01   -7.78e-01   -1.24e-01   -1.24e+00    1.28e-01
Vbs:       0.00e+00    1.22e-01    0.00e+00    1.24e-01    0.00e+00
Vth:      -4.63e-01   -5.02e-01   -4.63e-01   -5.02e-01    4.91e-01
Vdsat:    -7.50e-02   -5.83e-02   -7.50e-02   -5.76e-02    5.66e-02
Gm:        2.74e-04    8.05e-05    2.75e-04    8.09e-05    8.40e-05
Gds:       1.16e-05    5.18e-07    1.11e-05    4.84e-07    2.38e-06
Gmb        9.13e-05    2.54e-05    9.15e-05    2.55e-05    2.42e-05
Cbd:       0.00e+00    0.00e+00    0.00e+00    0.00e+00    0.00e+00
Cbs:       0.00e+00    0.00e+00    0.00e+00    0.00e+00    0.00e+00
Cgsov:     2.15e-14    1.29e-14    2.15e-14    1.29e-14    4.31e-15
Cgdov:     2.15e-14    1.29e-14    2.15e-14    1.29e-14    4.31e-15
Cgbov:     2.72e-15    1.63e-15    2.72e-15    1.63e-15    1.08e-15
dQgdVgb:   1.84e-13    8.11e-14    1.84e-13    8.01e-14    2.37e-14
dQgdVdb:  -2.22e-14   -1.29e-14   -2.21e-14   -1.29e-14   -4.33e-15
dQgdVsb:  -1.24e-13   -3.72e-14   -1.24e-13   -3.58e-14   -8.35e-15
dQddVgb:  -2.47e-14   -1.29e-14   -2.46e-14   -1.29e-14   -4.41e-15
dQddVdb:   2.34e-14    1.29e-14    2.33e-14    1.29e-14    4.36e-15
dQddVsb:   2.48e-15    2.58e-17    2.43e-15    9.97e-18    8.49e-17
dQbdVgb:  -4.69e-14   -3.31e-14   -4.69e-14   -3.33e-14   -1.11e-14
dQbdVdb:  -5.41e-16    7.33e-19   -5.19e-16    1.07e-18   -1.10e-17
dQbdVsb:  -2.25e-14   -5.10e-15   -2.24e-14   -4.80e-15   -1.12e-15

Name:        m9          m10         m8          m3          m2
Model:      nch.8       nch.8       nch.8       nch.8       nch.6
Id:        3.85e-06    3.85e-06    3.85e-06    2.24e-05    1.12e-05
Vgs:       4.62e-01    4.33e-01    4.65e-01    5.02e-01    5.38e-01
Vds:       7.72e-01    1.25e-01    3.07e-01    3.62e-01    1.32e+00
Vbs:      -1.28e-01    0.00e+00   -1.25e-01    0.00e+00   -3.62e-01
Vth:       5.26e-01    4.91e-01    5.26e-01    4.91e-01    5.92e-01
Vdsat:     5.60e-02    5.66e-02    5.67e-02    8.00e-02    5.82e-02
Gm:        8.50e-05    8.39e-05    8.48e-05    4.09e-04    2.37e-04
Gds:       5.33e-07    2.48e-06    8.02e-07    3.82e-06    2.11e-06
Gmb        2.29e-05    2.42e-05    2.28e-05    1.17e-04    5.68e-05
Cbd:       0.00e+00    0.00e+00    0.00e+00    0.00e+00    0.00e+00
Cbs:       0.00e+00    0.00e+00    0.00e+00    0.00e+00    0.00e+00
Cgsov:     4.31e-15    4.31e-15    4.31e-15    5.75e-15    5.81e-15
Cgdov:     4.31e-15    4.31e-15    4.31e-15    5.75e-15    5.81e-15
Cgbov:     1.08e-15    1.08e-15    1.08e-15    1.44e-15    5.17e-16
dQgdVgb:   2.27e-14    2.37e-14    2.29e-14    4.43e-14    2.50e-14
dQgdVdb:  -4.31e-15   -4.33e-15   -4.31e-15   -5.75e-15   -5.80e-15
dQgdVsb:  -7.71e-15   -8.35e-15   -8.01e-15   -2.79e-14   -1.02e-14
dQddVgb:  -4.31e-15   -4.41e-15   -4.33e-15   -5.84e-15   -5.81e-15
dQddVdb:   4.31e-15    4.36e-15    4.31e-15    5.77e-15    5.81e-15
dQddVsb:   3.74e-18    8.71e-17    2.09e-17    1.02e-16    1.67e-18
dQbdVgb:  -1.07e-14   -1.11e-14   -1.07e-14   -1.14e-14   -9.18e-15
dQbdVdb:   1.50e-19   -1.15e-17   -7.53e-19   -4.33e-18    9.32e-19
dQbdVsb:  -8.44e-16   -1.12e-15   -9.23e-16   -5.55e-15   -8.44e-16

Name:        m1          mp5         mp4         mp3         mp2
Model:      nch.6       pch.6       pch.6       pch.6       pch.6
Id:        1.12e-05   -1.08e-05   -4.00e-05   -4.00e-05   -4.04e-05
Vgs:       5.38e-01   -5.89e-01   -4.97e-01   -4.76e-01   -4.91e-01
Vds:       1.31e+00   -5.89e-01   -3.84e-01   -9.20e-02   -8.03e-01
Vbs:      -3.62e-01    0.00e+00    9.20e-02    0.00e+00    9.74e-02
Vth:       5.92e-01   -5.00e-01   -5.31e-01   -5.01e-01   -5.31e-01
Vdsat:     5.82e-02   -1.17e-01   -6.02e-02   -6.23e-02   -5.88e-02
Gm:        2.37e-04    1.43e-04    8.21e-04    7.89e-04    8.32e-04
Gds:       2.11e-06    3.05e-06    1.77e-05    8.12e-05    1.34e-05
Gmb        5.68e-05    4.83e-05    2.67e-04    2.70e-04    2.68e-04
Cbd:       0.00e+00    0.00e+00    0.00e+00    0.00e+00    0.00e+00
Cbs:       0.00e+00    0.00e+00    0.00e+00    0.00e+00    0.00e+00
Cgsov:     5.81e-15    1.07e-15    3.43e-14    3.43e-14    3.43e-14
Cgdov:     5.81e-15    1.07e-15    3.43e-14    3.43e-14    3.43e-14
Cgbov:     5.17e-16    4.83e-17    1.54e-15    1.54e-15    1.54e-15
dQgdVgb:   2.50e-14    5.71e-15    1.26e-13    1.32e-13    1.24e-13
dQgdVdb:  -5.80e-15   -1.06e-15   -3.42e-14   -3.45e-14   -3.42e-14
dQgdVsb:  -1.02e-14   -4.24e-15   -6.04e-14   -6.63e-14   -5.74e-14
dQddVgb:  -5.81e-15   -1.08e-15   -3.44e-14   -3.56e-14   -3.43e-14
dQddVdb:   5.81e-15    1.07e-15    3.43e-14    3.52e-14    3.43e-14
dQddVsb:   1.68e-18    5.82e-18    9.68e-17    9.35e-16    2.24e-17
dQbdVgb:  -9.18e-15   -8.39e-16   -3.43e-14   -3.42e-14   -3.47e-14
dQbdVdb:   9.32e-19    8.58e-19    1.02e-17   -2.69e-16    1.32e-17
dQbdVsb:  -8.44e-16   -4.92e-16   -4.74e-15   -6.54e-15   -4.17e-15

Name:        mp1         mn5         mn4         mn3         mn2
Model:      pch.6       nch.9       nch.9       nch.9       nch.9
Id:       -4.04e-05    1.32e-05    4.00e-05    4.00e-05    4.08e-05
Vgs:      -4.76e-01    5.90e-01    5.09e-01    5.02e-01    5.02e-01
Vds:      -9.74e-02    5.90e-01    4.21e-01    8.13e-02    8.12e-01
Vbs:       0.00e+00    0.00e+00   -8.13e-02    0.00e+00   -8.79e-02
Vth:      -5.01e-01    5.25e-01    5.49e-01    5.27e-01    5.50e-01
Vdsat:    -6.23e-02    9.68e-02    5.87e-02    6.26e-02    5.70e-02
Gm:        8.00e-04    1.73e-04    7.72e-04    7.26e-04    7.88e-04
Gds:       7.19e-05    4.54e-06    2.18e-05    1.29e-04    1.70e-05
Gmb        2.74e-04    5.10e-05    2.18e-04    2.19e-04    2.19e-04
Cbd:       0.00e+00    0.00e+00    0.00e+00    0.00e+00    0.00e+00
Cbs:       0.00e+00    0.00e+00    0.00e+00    0.00e+00    0.00e+00
Cgsov:     3.43e-14    3.59e-16    6.47e-15    6.47e-15    6.47e-15
Cgdov:     3.43e-14    3.59e-16    6.47e-15    6.47e-15    6.47e-15
Cgbov:     1.54e-15    3.18e-17    5.73e-16    5.73e-16    5.73e-16
dQgdVgb:   1.32e-13    1.74e-15    2.31e-14    2.45e-14    2.26e-14
dQgdVdb:  -3.45e-14   -3.58e-16   -6.46e-15   -6.53e-15   -6.46e-15
dQgdVsb:  -6.63e-14   -1.15e-15   -1.01e-14   -1.17e-14   -9.54e-15
dQddVgb:  -3.55e-14   -3.61e-16   -6.48e-15   -6.76e-15   -6.47e-15
dQddVdb:   3.51e-14    3.60e-16    6.47e-15    6.68e-15    6.47e-15
dQddVsb:   8.86e-16    1.54e-18    1.21e-17    1.72e-16    3.09e-18
dQbdVgb:  -3.42e-14   -2.68e-16   -6.60e-15   -6.36e-15   -6.71e-15
dQbdVdb:  -2.33e-16    2.49e-19    1.70e-18   -6.42e-17    1.90e-18
dQbdVsb:  -6.53e-15   -1.88e-16   -9.30e-16   -1.44e-15   -7.84e-16

Name:        mn1
Model:      nch.9
Id:        4.08e-05
Vgs:       5.02e-01
Vds:       8.79e-02
Vbs:       0.00e+00
Vth:       5.27e-01
Vdsat:     6.26e-02
Gm:        7.44e-04
Gds:       1.11e-04
Gmb        2.24e-04
Cbd:       0.00e+00
Cbs:       0.00e+00
Cgsov:     6.47e-15
Cgdov:     6.47e-15
Cgbov:     5.73e-16
dQgdVgb:   2.45e-14
dQgdVdb:  -6.52e-15
dQgdVsb:  -1.17e-14
dQddVgb:  -6.72e-15
dQddVdb:   6.64e-15
dQddVsb:   1.62e-16
dQbdVgb:  -6.37e-15
dQbdVdb:  -5.32e-17
dQbdVsb:  -1.43e-15



Date: Sat May 16 03:35:57 2026
Total elapsed time: 0.062 seconds.

tnom = 27
temp = 27
method = trap
totiter = 740
traniter = 0
tranpoints = 0
accept = 0
rejected = 0
matrix size = 24
fillins = 17
solver = Normal
Matrix Compiler1:     187 opcodes
Matrix Compiler2: off  [0.1]/0.2/0.2

